SRDE,1305,2005
198,42A,156D
1,SLKS VR,A,,kV,0.0151063530,0.0000000000,0,-32767,+32767,275.000000,0.110000,P
2,SLKS VY,B,,kV,0.0151063530,0.0000000000,0,-32767,+32767,275.000000,0.110000,P
3,SLKS VB,C,,kV,0.0151063530,0.0000000000,0,-32767,+32767,275.000000,0.110000,P
4,SLKS IR,A,,kA,0.0032370754,0.0000000000,0,-32767,+32767,1.500000,0.001000,P
5,SLKS IY,B,,kA,0.0032370754,0.0000000000,0,-32767,+32767,1.500000,0.001000,P
6,SLKS IB,C,,kA,0.0032370754,0.0000000000,0,-32767,+32767,1.500000,0.001000,P
7,SLKS IN,N,,kA,0.0032370754,0.0000000000,0,-32767,+32767,1.500000,0.001000,P
8,MCRS VR,A,,kV,0.0151063530,0.0000000000,0,-32767,+32767,275.000000,0.110000,P
9,MCRS VY,B,,kV,0.0151063530,0.0000000000,0,-32767,+32767,275.000000,0.110000,P
10,MCRS VB,C,,kV,0.0151063530,0.0000000000,0,-32767,+32767,275.000000,0.110000,P
11,MCRS IR,A,,kA,0.0032370754,0.0000000000,0,-32767,+32767,1.500000,0.001000,P
12,MCRS IY,B,,kA,0.0032370754,0.0000000000,0,-32767,+32767,1.500000,0.001000,P
13,MCRS IB,C,,kA,0.0032370754,0.0000000000,0,-32767,+32767,1.500000,0.001000,P
14,MCRS IN,N,,kA,0.0032370754,0.0000000000,0,-32767,+32767,1.500000,0.001000,P
15,NUNI1 VR,A,,kV,0.0151063530,0.0000000000,0,-32767,+32767,275.000000,0.110000,P
16,NUNI1 VY,B,,kV,0.0151063530,0.0000000000,0,-32767,+32767,275.000000,0.110000,P
17,NUNI1 VB,C,,kV,0.0151063530,0.0000000000,0,-32767,+32767,275.000000,0.110000,P
18,NUNI1 IR,A,,kA,0.0053951256,0.0000000000,0,-32767,+32767,2.500000,0.001000,P
19,NUNI1 IY,B,,kA,0.0053951256,0.0000000000,0,-32767,+32767,2.500000,0.001000,P
20,NUNI1 IB,C,,kA,0.0053951256,0.0000000000,0,-32767,+32767,2.500000,0.001000,P
21,NUNI1 IN,N,,kA,0.0053951256,0.0000000000,0,-32767,+32767,2.500000,0.001000,P
22,NUNI2 VR,A,,kV,0.0151063530,0.0000000000,0,-32767,+32767,275.000000,0.110000,P
23,NUNI2 VY,B,,kV,0.0151063530,0.0000000000,0,-32767,+32767,275.000000,0.110000,P
24,NUNI2 VB,C,,kV,0.0151063530,0.0000000000,0,-32767,+32767,275.000000,0.110000,P
25,NUNI2 IR,A,,kA,0.0053951256,0.0000000000,0,-32767,+32767,2.500000,0.001000,P
26,NUNI2 IY,B,,kA,0.0053951256,0.0000000000,0,-32767,+32767,2.500000,0.001000,P
27,NUNI2 IB,C,,kA,0.0053951256,0.0000000000,0,-32767,+32767,2.500000,0.001000,P
28,NUNI2 IN,N,,kA,0.0053951256,0.0000000000,0,-32767,+32767,2.500000,0.001000,P
29,BUGL/SRDG1 VR,A,,kV,0.0151063530,0.0000000000,0,-32767,+32767,275.000000,0.110000,P
30,BUGL/SRDG1 VY,B,,kV,0.0151063530,0.0000000000,0,-32767,+32767,275.000000,0.110000,P
31,BUGL/SRDG1 VB,C,,kV,0.0151063530,0.0000000000,0,-32767,+32767,275.000000,0.110000,P
32,BUGL/SRDG1 IR,A,,kA,0.0053951256,0.0000000000,0,-32767,+32767,2.500000,0.001000,P
33,BUGL/SRDG1 IY,B,,kA,0.0053951256,0.0000000000,0,-32767,+32767,2.500000,0.001000,P
34,BUGL/SRDG1 IB,C,,kA,0.0053951256,0.0000000000,0,-32767,+32767,2.500000,0.001000,P
35,BUGL/SRDG1 IN,N,,kA,0.0053951256,0.0000000000,0,-32767,+32767,2.500000,0.001000,P
36,BUGL/SRDG2 VR ,A,,kV,0.0151063530,0.0000000000,0,-32767,+32767,275.000000,0.110000,P
37,BUGL/SRDG2 VY,B,,kV,0.0151063530,0.0000000000,0,-32767,+32767,275.000000,0.110000,P
38,BUGL/SRDG2 VB,C,,kV,0.0151063530,0.0000000000,0,-32767,+32767,275.000000,0.110000,P
39,BUGL/SRDG2 IR,A,,kA,0.0053951256,0.0000000000,0,-32767,+32767,2.500000,0.001000,P
40,BUGL/SRDG2 IY,B,,kA,0.0053951256,0.0000000000,0,-32767,+32767,2.500000,0.001000,P
41,BUGL/SRDG2 IB,C,,kA,0.0053951256,0.0000000000,0,-32767,+32767,2.500000,0.001000,P
42,BUGL/SRDG2 IN,N,,kA,0.0053951256,0.0000000000,0,-32767,+32767,2.500000,0.001000,P
1,OVER SLKS VR,,,0
2,UNDER SLKS VR,,,0
3,OVER SLKS VY,,,0
4,UNDER SLKS VY,,,0
5,OVER SLKS VB,,,0
6,UNDER SLKS VB,,,0
7,OVER SLKS IR,,,0
8,OVER SLKS IY,,,0
9,OVER SLKS IB,,,0
10,OVER SLKS IN,,,0
11,SLKS 87L/1,,,0
12,SLKS 87L/2,,,0
13,SLKS 87L/1_COMMFAIL,,,0
14,SLKS 87L/2_COMMFAIL,,,0
15,SLKS 21ZBU_Z1,,,0
16,SLKS SPARE,,,0
17,SLKS 21ZBU_SOTF,,,0
18,SLKS THOL,,,0
19,SLKS 79AR_ATMPT,,,0
20,SLKS 79AR_L/O,,,0
21,SLKS 50BF_STG1/STG2,,,0
22,SLKS 85INTR_SEND,,,0
23,SLKS 85INTR_REC,,,0
24,SLKS CB_R OPEN,,,0
25,SLKS CB_Y OPEN,,,0
26,SLKS CB_B OPEN,,,0
27,OVER MCRS VR,,,0
28,UNDER MCRS VR,,,0
29,OVER MCRS VY,,,0
30,UNDER MCRS VY,,,0
31,OVER MCRS VB,,,0
32,UNDER MCRS VB,,,0
33,OVER MCRS IR,,,0
34,OVER MCRS IY,,,0
35,OVER MCRS IB,,,0
36,OVER MCRS IN,,,0
37,MCRS 87L/1,,,0
38,MCRS 87L/2,,,0
39,MCRS 87L/1_COMMFAIL,,,0
40,MCRS 87L/2_COMMFAIL,,,0
41,MCRS 21ZBU_Z1,,,0
42,MCRS SPARE,,,0
43,MCRS 21ZBU_SOTF,,,0
44,MCRS THOL,,,0
45,MCRS 79AR_ATMPT,,,0
46,MCRS 79AR_L/O,,,0
47,MCRS 50BF_STG1/STG2,,,0
48,MCRS 85INTR_SEND,,,0
49,MCRS 85INTR_REC,,,0
50,MCRS CB_R OPEN,,,0
51,MCRS CB_Y OPEN,,,0
52,MCRS CB_B OPEN,,,0
53,OVER NUNI1 VR,,,0
54,UNDER NUNI1 VR,,,0
55,OVER NUNI1 VY,,,0
56,UNDER NUNI1 VY,,,0
57,OVER NUNI1 VB,,,0
58,UNDER NUNI1 VB,,,0
59,OVER NUNI1 IR,,,0
60,OVER NUNI1 IY,,,0
61,OVER NUNI1 IB,,,0
62,OVER NUNI1 IN,,,0
63,NUNI1 87L/1,,,0
64,NUNI1 87L/2,,,0
65,NUNI1 87L/1_COMMFAIL,,,0
66,NUNI1 87L/2_COMMFAIL,,,0
67,NUNI1 21ZBU_Z1,,,0
68,NUNI1 SPARE,,,0
69,NUNI1 21ZBU_SOTF,,,0
70,NUNI1 THOL,,,0
71,NUNI1 79AR_ATMPT,,,0
72,NUNI1 79AR_L/O,,,0
73,NUNI1 50BF_STG1/STG2,,,0
74,NUNI1 85INTR_SEND,,,0
75,NUNI1 85INTR_REC,,,0
76,NUNI1 CB_R OPEN,,,0
77,NUNI1 CB_Y OPEN,,,0
78,NUNI1 CB_B OPEN,,,0
79,OVER NUNI2 VR,,,0
80,UNDER NUNI2 VR,,,0
81,OVER NUNI2 VY,,,0
82,UNDER NUNI2 VY,,,0
83,OVER NUNI2 VB,,,0
84,UNDER NUNI2 VB,,,0
85,OVER NUNI2 IR,,,0
86,OVER NUNI2 IY,,,0
87,OVER NUNI2 IB,,,0
88,OVER NUNI2 IN,,,0
89,NUNI2 87L/1,,,0
90,NUNI2 87L/2,,,0
91,NUNI2 87L/1_COMMFAIL,,,0
92,NUNI2 87L/2_COMMFAIL,,,0
93,NUNI2 21ZBU_Z1,,,0
94,NUNI2 SPARE,,,0
95,NUNI2 21ZBU_SOTF,,,0
96,NUNI2 THOL,,,0
97,NUNI2 79AR_ATMPT,,,0
98,NUNI2 79AR_L/O,,,0
99,NUNI2 50BF_STG1/STG2,,,0
100,NUNI2 85INTR_SEND,,,0
101,NUNI2 85INTR_REC,,,0
102,NUNI2 CB_R OPEN,,,0
103,NUNI2 CB_Y OPEN,,,0
104,NUNI2 CB_B OPEN,,,0
105,OVER BUGL/SRDG1 VR,,,0
106,UNDER BUGL/SRDG1 VR,,,0
107,OVER BUGL/SRDG1 VY,,,0
108,UNDER BUGL/SRDG1 VY,,,0
109,OVER BUGL/SRDG1 VB,,,0
110,UNDER BUGL/SRDG1 VB,,,0
111,OVER BUGL/SRDG1 IR,,,0
112,OVER BUGL/SRDG1 IY,,,0
113,OVER BUGL/SRDG1 IB,,,0
114,OVER BUGL/SRDG1 IN,,,0
115,BUGL/SRDG1 87/1,,,0
116,BUGL/SRDG1 87/2,,,0
117,BUGL/SRDG1 87/1_COMMFAIL,,,0
118,BUGL/SRDG1 87/2_COMMFAIL,,,0
119,BUGL/SRDG1 21ZBU_Z1,,,0
120,BUGL/SRDG1 85INTR_REC,,,0
121,BUGL/SRDG1 21ZBU_SOTF,,,0
122,BUGL/SRDG1 THOL,,,0
123,BUGL/SRDG1 79AR_ATTEMPT,,,0
124,BUGL/SRDG1 79AR_L/O,,,0
125,BUGL/SRDG1 50BF_STG1/STG2,,,0
126,BUGL/SRDG1 85INTR_SEND,,,0
127,BUGL/SRDG1 85INTR_REC,,,0
128,BUGL/SRDG1 CB_R OPEN,,,0
129,BUGL/SRDG1 CB_Y OPEN,,,0
130,BUGL/SRDG1 CB_B OPEN,,,0
131,OVER BUGL/SRDG2 VR ,,,0
132,UNDER BUGL/SRDG2 VR ,,,0
133,OVER BUGL/SRDG2 VY,,,0
134,UNDER BUGL/SRDG2 VY,,,0
135,OVER BUGL/SRDG2 VB,,,0
136,UNDER BUGL/SRDG2 VB,,,0
137,OVER BUGL/SRDG2 IR,,,0
138,OVER BUGL/SRDG2 IY,,,0
139,OVER BUGL/SRDG2 IB,,,0
140,OVER BUGL/SRDG2 IN,,,0
141,BUGL/SRDG2 87L/1,,,0
142,BUGL/SRDG2 87L/2,,,0
143,BUGL/SRDG2 87L/1_COMMFAIL,,,0
144,BUGL/SRDG2 87L/2_COMMFAIL,,,0
145,BUGL/SRDG2 21ZBU_Z1,,,0
146,BUGL/SRDG2 85INTR_REC,,,0
147,BUGL/SRDG2 21ZBU/SOTF,,,0
148,BUGL/SRDG2 THOL,,,0
149,BUGL/SRDG2 79AR_ATTEMPT,,,0
150,BUGL/SRDG2 79AR_L/O,,,0
151,BUGL/SRDG2 50BF_STG1/STG2,,,0
152,BUGL/SRDG2 85INTR_SEND,,,0
153,BUGL/SRDG2 85INTR_REC,,,0
154,BUGL/SRDG2 CB_R_OPEN,,,0
155,BUGL/SRDG2 CB_Y_OPEN,,,0
156,BUGL/SRDG2 CB_B_OPEN,,,0
50
1
5000.000,1854
06/03/2026,18:04:09.218133
06/03/2026,18:04:09.318133
ASCII
1
         1,         0,  6106,  8941,-15558,    41,   145,  -192,   -45,  6133,  8969,-15416,    40,    60,  -182,    -1,  6194,  8958,-15533,   -69,   -42,   184,    14,  6205,  8988,-15279,    36,   -11,    17,     2,  5905,  9173,-15360,   -55,    -7,    68,    26,  6000,  9201,-15317,    21,   -15,   -17,   -13,0,0,0,0,0,0,0,0,0,0,0,0,0,0,0,0,0,0,0,0,0,0,0,0,0,0,0,0,0,0,0,0,0,0,0,0,0,0,0,0,0,0,0,0,0,0,0,0,0,0,0,0,0,0,0,0,0,0,0,0,0,0,0,0,0,0,0,0,0,0,0,0,0,0,0,0,0,0,0,0,0,0,0,0,0,0,0,0,0,0,0,0,0,0,0,0,0,0,0,0,0,0,0,0,0,0,0,0,0,0,0,0,0,0,0,0,0,0,0,1,0,0,0,0,0,0,0,1,1,1,0,0,0,0,0,0,0,0,0,0,0,0,0,0,0,1,0,0,0,0,0,0,0,1,1,1
         2,       200,  5230,  9727,-15445,    26,   154,  -186,   -47,  5255,  9754,-15302,    28,    66,  -177,     0,  5319,  9746,-15423,   -58,   -52,   183,    12,  5330,  9775,-15177,    40,   -10,    12,     4,  5006,  9940,-15211,   -55,    -5,    68,    26,  5100,  9973,-15169,    21,   -15,   -16,   -12,0,0,0,0,0,0,0,0,0,0,0,0,0,0,0,0,0,0,0,0,0,0,0,0,0,0,0,0,0,0,0,0,0,0,0,0,0,0,0,0,0,0,0,0,0,0,0,0,0,0,0,0,0,0,0,0,0,0,0,0,0,0,0,0,0,0,0,0,0,0,0,0,0,0,0,0,0,0,0,0,0,0,0,0,0,0,0,0,0,0,0,0,0,0,0,0,0,0,0,0,0,0,0,0,0,0,0,0,0,0,0,0,0,0,0,0,0,0,0,1,0,0,0,0,0,0,0,1,1,1,0,0,0,0,0,0,0,0,0,0,0,0,0,0,0,1,0,0,0,0,0,0,0,1,1,1
         3,       400,  4309, 10486,-15251,    12,   160,  -178,   -47,  4334, 10513,-15107,    17,    73,  -174,     0,  4399, 10505,-15230,   -47,   -62,   182,    11,  4412, 10534,-15012,    44,    -8,     5,     5,  4074, 10657,-14970,   -56,    -5,    67,    25,  4168, 10694,-14929,    22,   -16,   -16,   -12,0,0,0,0,0,0,0,0,0,0,0,0,0,0,0,0,0,0,0,0,0,0,0,0,0,0,0,0,0,0,0,0,0,0,0,0,0,0,0,0,0,0,0,0,0,0,0,0,0,0,0,0,0,0,0,0,0,0,0,0,0,0,0,0,0,0,0,0,0,0,0,0,0,0,0,0,0,0,0,0,0,0,0,0,0,0,0,0,0,0,0,0,0,0,0,0,0,0,0,0,0,0,0,0,0,0,0,0,0,0,0,0,0,0,0,0,0,0,0,1,0,0,0,0,0,0,0,1,1,1,0,0,0,0,0,0,0,0,0,0,0,0,0,0,0,1,0,0,0,0,0,0,0,1,1,1
         4,       600,  3355, 11201,-14971,    -3,   166,  -168,   -48,  3380, 11229,-14825,     8,    78,  -170,     0,  3443, 11221,-14951,   -36,   -72,   181,    12,  3459, 11251,-14779,    49,    -8,    -1,     5,  3117, 11322,-14644,   -55,    -5,    67,    25,  3212, 11360,-14601,    22,   -16,   -18,   -12,0,0,0,0,0,0,0,0,0,0,0,0,0,0,0,0,0,0,0,0,0,0,0,0,0,0,0,0,0,0,0,0,0,0,0,0,0,0,0,0,0,0,0,0,0,0,0,0,0,0,0,0,0,0,0,0,0,0,0,0,0,0,0,0,0,0,0,0,0,0,0,0,0,0,0,0,0,0,0,0,0,0,0,0,0,0,0,0,0,0,0,0,0,0,0,0,0,0,0,0,0,0,0,0,0,0,0,0,0,0,0,0,0,0,0,0,0,0,0,1,0,0,0,0,0,0,0,1,1,1,0,0,0,0,0,0,0,0,0,0,0,0,0,0,0,1,0,0,0,0,0,0,0,1,1,1
         5,       800,  2379, 11855,-14602,   -17,   174,  -160,   -48,  2407, 11887,-14454,     0,    83,  -165,     0,  2469, 11876,-14582,   -27,   -80,   179,    12,  2484, 11913,-14476,    53,    -7,    -6,     7,  2146, 11934,-14243,   -54,    -5,    69,    25,  2240, 11974,-14196,    21,   -15,   -17,   -12,0,0,0,0,0,0,0,0,0,0,0,0,0,0,0,0,0,0,0,0,0,0,0,0,0,0,0,0,0,0,0,0,0,0,0,0,0,0,0,0,0,0,0,0,0,0,0,0,0,0,0,0,0,0,0,0,0,0,0,0,0,0,0,0,0,0,0,0,0,0,0,0,0,0,0,0,0,0,0,0,0,0,0,0,0,0,0,0,0,0,0,0,0,0,0,0,0,0,0,0,0,0,0,0,0,0,0,0,0,0,0,0,0,0,0,0,0,0,0,1,0,0,0,0,0,0,0,1,1,1,0,0,0,0,0,0,0,0,0,0,0,0,0,0,0,1,0,0,0,0,0,0,0,1,1,1
         6,      1000,  1396, 12438,-14149,   -31,   182,  -153,   -49,  1429, 12473,-14000,    -8,    90,  -160,     0,  1490, 12456,-14129,   -17,   -87,   178,    11,  1505, 12504,-14099,    57,    -5,   -13,    10,  1170, 12497,-13785,   -55,    -5,    69,    26,  1264, 12539,-13732,    21,   -15,   -16,   -14,0,0,0,0,0,0,0,0,0,0,0,0,0,0,0,0,0,0,0,0,0,0,0,0,0,0,0,0,0,0,0,0,0,0,0,0,0,0,0,0,0,0,0,0,0,0,0,0,0,0,0,0,0,0,0,0,0,0,0,0,0,0,0,0,0,0,0,0,0,0,0,0,0,0,0,0,0,0,0,0,0,0,0,0,0,0,0,0,0,0,0,0,0,0,0,0,0,0,0,0,0,0,0,0,0,0,0,0,0,0,0,0,0,0,0,0,0,0,0,1,0,0,0,0,0,0,0,1,1,1,0,0,0,0,0,0,0,0,0,0,0,0,0,0,0,1,0,0,0,0,0,0,0,1,1,1
         7,      1200,   421, 12948,-13627,   -43,   188,  -145,   -51,   458, 12982,-13474,   -17,    96,  -156,    -2,   516, 12963,-13603,    -5,   -94,   176,    11,   535, 13017,-13651,    60,    -5,   -19,    11,   200, 13013,-13284,   -56,    -6,    67,    26,   296, 13054,-13224,    21,   -15,   -16,   -14,0,0,0,0,0,0,0,0,0,0,0,0,0,0,0,0,0,0,0,0,0,0,0,0,0,0,0,0,0,0,0,0,0,0,0,0,0,0,0,0,0,0,0,0,0,0,0,0,0,0,0,0,0,0,0,0,0,0,0,0,0,0,0,0,0,0,0,0,0,0,0,0,0,0,0,0,0,0,0,0,0,0,0,0,0,0,0,0,0,0,0,0,0,0,0,0,0,0,0,0,0,0,0,0,0,0,0,0,0,0,0,0,0,0,0,0,0,0,0,1,0,0,0,0,0,0,0,1,1,1,0,0,0,0,0,0,0,0,0,0,0,0,0,0,0,1,0,0,0,0,0,0,0,1,1,1
         8,      1400,  -542, 13393,-13055,   -57,   194,  -137,   -53,  -501, 13427,-12897,   -27,    99,  -152,    -2,  -445, 13407,-13023,     4,  -102,   173,     9,  -424, 13465,-13137,    63,    -5,   -22,    10,  -756, 13478,-12748,   -56,    -6,    67,    26,  -658, 13519,-12681,    23,   -15,   -18,   -13,0,0,0,0,0,0,0,0,0,0,0,0,0,0,0,0,0,0,0,0,0,0,0,0,0,0,0,0,0,0,0,0,0,0,0,0,0,0,0,0,0,0,0,0,0,0,0,0,0,0,0,0,0,0,0,0,0,0,0,0,0,0,0,0,0,0,0,0,0,0,0,0,0,0,0,0,0,0,0,0,0,0,0,0,0,0,0,0,0,0,0,0,0,0,0,0,0,0,0,0,0,0,0,0,0,0,0,0,0,0,0,0,0,0,0,0,0,0,0,1,0,0,0,0,0,0,0,1,1,1,0,0,0,0,0,0,0,0,0,0,0,0,0,0,0,1,0,0,0,0,0,0,0,1,1,1
         9,      1600, -1493, 13790,-12449,   -70,   200,  -129,   -53, -1450, 13822,-12288,   -38,   102,  -146,     0, -1392, 13803,-12409,    13,  -108,   168,     9, -1372, 13863,-12564,    66,    -4,   -25,    11, -1696, 13888,-12173,   -56,    -6,    67,    26, -1597, 13930,-12105,    23,   -16,   -18,   -14,0,0,0,0,0,0,0,0,0,0,0,0,0,0,0,0,0,0,0,0,0,0,0,0,0,0,0,0,0,0,0,0,0,0,0,0,0,0,0,0,0,0,0,0,0,0,0,0,0,0,0,0,0,0,0,0,0,0,0,0,0,0,0,0,0,0,0,0,0,0,0,0,0,0,0,0,0,0,0,0,0,0,0,0,0,0,0,0,0,0,0,0,0,0,0,0,0,0,0,0,0,0,0,0,0,0,0,0,0,0,0,0,0,0,0,0,0,0,0,1,0,0,0,0,0,0,0,1,1,1,0,0,0,0,0,0,0,0,0,0,0,0,0,0,0,1,0,0,0,0,0,0,0,1,1,1
        10,      1800, -2436, 14151,-11822,   -82,   205,  -121,   -53, -2393, 14179,-11657,   -47,   106,  -139,     0, -2332, 14160,-11775,    23,  -114,   164,    10, -2312, 14219,-11937,    68,    -2,   -30,    11, -2622, 14242,-11563,   -56,    -6,    67,    25, -2524, 14285,-11494,    21,   -16,   -18,   -15,0,0,0,0,0,0,0,0,0,0,0,0,0,0,0,0,0,0,0,0,0,0,0,0,0,0,0,0,0,0,0,0,0,0,0,0,0,0,0,0,0,0,0,0,0,0,0,0,0,0,0,0,0,0,0,0,0,0,0,0,0,0,0,0,0,0,0,0,0,0,0,0,0,0,0,0,0,0,0,0,0,0,0,0,0,0,0,0,0,0,0,0,0,0,0,0,0,0,0,0,0,0,0,0,0,0,0,0,0,0,0,0,0,0,0,0,0,0,0,1,0,0,0,0,0,0,0,1,1,1,0,0,0,0,0,0,0,0,0,0,0,0,0,0,0,1,0,0,0,0,0,0,0,1,1,1
        11,      2000, -3372, 14478,-11174,   -95,   209,  -112,   -54, -3328, 14501,-11005,   -54,   108,  -134,    -2, -3267, 14480,-11121,    33,  -118,   160,    10, -3244, 14539,-11263,    70,    -2,   -34,    12, -3533, 14544,-10918,   -56,    -6,    69,    25, -3437, 14586,-10849,    21,   -15,   -17,   -13,0,0,0,0,0,0,0,0,0,0,0,0,0,0,0,0,0,0,0,0,0,0,0,0,0,0,0,0,0,0,0,0,0,0,0,0,0,0,0,0,0,0,0,0,0,0,0,0,0,0,0,0,0,0,0,0,0,0,0,0,0,0,0,0,0,0,0,0,0,0,0,0,0,0,0,0,0,0,0,0,0,0,0,0,0,0,0,0,0,0,0,0,0,0,0,0,0,0,0,0,0,0,0,0,0,0,0,0,0,0,0,0,0,0,0,0,0,0,0,1,0,0,0,0,0,0,0,1,1,1,0,0,0,0,0,0,0,0,0,0,0,0,0,0,0,1,0,0,0,0,0,0,0,1,1,1
        12,      2200, -4300, 14765,-10497,  -106,   212,  -102,   -54, -4253, 14787,-10330,   -61,   109,  -128,    -2, -4193, 14763,-10441,    44,  -121,   154,     9, -4170, 14826,-10544,    72,    -2,   -37,    14, -4430, 14794,-10239,   -56,    -5,    69,    27, -4337, 14833,-10170,    21,   -16,   -17,   -12,0,0,0,0,0,0,0,0,0,0,0,0,0,0,0,0,0,0,0,0,0,0,0,0,0,0,0,0,0,0,0,0,0,0,0,0,0,0,0,0,0,0,0,0,0,0,0,0,0,0,0,0,0,0,0,0,0,0,0,0,0,0,0,0,0,0,0,0,0,0,0,0,0,0,0,0,0,0,0,0,0,0,0,0,0,0,0,0,0,0,0,0,0,0,0,0,0,0,0,0,0,0,0,0,0,0,0,0,0,0,0,0,0,0,0,0,0,0,0,1,0,0,0,0,0,0,0,1,1,1,0,0,0,0,0,0,0,0,0,0,0,0,0,0,0,1,0,0,0,0,0,0,0,1,1,1
        13,      2400, -5214, 15006, -9788,  -115,   211,   -91,   -54, -5164, 15029, -9628,   -71,   111,  -120,    -3, -5107, 15002, -9736,    54,  -122,   146,     9, -5083, 15070, -9788,    74,     0,   -42,    15, -5313, 14996, -9530,   -56,    -5,    69,    27, -5223, 15033, -9462,    20,   -18,   -18,   -14,0,0,0,0,0,0,0,0,0,0,0,0,0,0,0,0,0,0,0,0,0,0,0,0,0,0,0,0,0,0,0,0,0,0,0,0,0,0,0,0,0,0,0,0,0,0,0,0,0,0,0,0,0,0,0,0,0,0,0,0,0,0,0,0,0,0,0,0,0,0,0,0,0,0,0,0,0,0,0,0,0,0,0,0,0,0,0,0,0,0,0,0,0,0,0,0,0,0,0,0,0,0,0,0,0,0,0,0,0,0,0,0,0,0,0,0,0,0,0,1,0,0,0,0,0,0,0,1,1,1,0,0,0,0,0,0,0,0,0,0,0,0,0,0,0,1,0,0,0,0,0,0,0,1,1,1
        14,      2600, -6105, 15198, -9057,  -126,   210,   -77,   -56, -6053, 15222, -8902,   -79,   111,  -111,    -3, -6001, 15190, -9008,    62,  -124,   138,     9, -5973, 15262, -9002,    77,     3,   -48,    15, -6184, 15156, -8793,   -57,    -5,    69,    26, -6097, 15188, -8726,    20,   -18,   -18,   -15,0,0,0,0,0,0,0,0,0,0,0,0,0,0,0,0,0,0,0,0,0,0,0,0,0,0,0,0,0,0,0,0,0,0,0,0,0,0,0,0,0,0,0,0,0,0,0,0,0,0,0,0,0,0,0,0,0,0,0,0,0,0,0,0,0,0,0,0,0,0,0,0,0,0,0,0,0,0,0,0,0,0,0,0,0,0,0,0,0,0,0,0,0,0,0,0,0,0,0,0,0,0,0,0,0,0,0,0,0,0,0,0,0,0,0,0,0,0,0,1,0,0,0,0,0,0,0,1,1,1,0,0,0,0,0,0,0,0,0,0,0,0,0,0,0,1,0,0,0,0,0,0,0,1,1,1
        15,      2800, -6970, 15336, -8306,  -139,   209,   -64,   -57, -6917, 15364, -8154,   -86,   110,  -103,    -2, -6867, 15325, -8258,    72,  -127,   130,     9, -6838, 15404, -8190,    79,     4,   -52,    16, -7044, 15272, -8023,   -57,    -5,    69,    25, -6961, 15299, -7961,    21,   -16,   -18,   -13,0,0,0,0,0,0,0,0,0,0,0,0,0,0,0,0,0,0,0,0,0,0,0,0,0,0,0,0,0,0,0,0,0,0,0,0,0,0,0,0,0,0,0,0,0,0,0,0,0,0,0,0,0,0,0,0,0,0,0,0,0,0,0,0,0,0,0,0,0,0,0,0,0,0,0,0,0,0,0,0,0,0,0,0,0,0,0,0,0,0,0,0,0,0,0,0,0,0,0,0,0,0,0,0,0,0,0,0,0,0,0,0,0,0,0,0,0,0,0,1,0,0,0,0,0,0,0,1,1,1,0,0,0,0,0,0,0,0,0,0,0,0,0,0,0,1,0,0,0,0,0,0,0,1,1,1
        16,      3000, -7812, 15418, -7529,  -149,   206,   -51,   -57, -7757, 15449, -7382,   -93,   108,   -93,    -2, -7710, 15406, -7483,    82,  -127,   120,    10, -7682, 15492, -7356,    80,     6,   -55,    17, -7894, 15331, -7220,   -55,    -5,    67,    25, -7812, 15360, -7161,    21,   -15,   -18,   -12,0,0,0,0,0,0,0,0,0,0,0,0,0,0,0,0,0,0,0,0,0,0,0,0,0,0,0,0,0,0,0,0,0,0,0,0,0,0,0,0,0,0,0,0,0,0,0,0,0,0,0,0,0,0,0,0,0,0,0,0,0,0,0,0,0,0,0,0,0,0,0,0,0,0,0,0,0,0,0,0,0,0,0,0,0,0,0,0,0,0,0,0,0,0,0,0,0,0,0,0,0,0,0,0,0,0,0,0,0,0,0,0,0,0,0,0,0,0,0,1,0,0,0,0,0,0,0,1,1,1,0,0,0,0,0,0,0,0,0,0,0,0,0,0,0,1,0,0,0,0,0,0,0,1,1,1
        17,      3200, -8636, 15439, -6719,  -159,   202,   -37,   -58, -8580, 15471, -6578,  -101,   106,   -81,    -3, -8535, 15424, -6676,    90,  -124,   111,     8, -8505, 15514, -6501,    80,    10,   -60,    18, -8724, 15314, -6383,   -54,    -6,    66,    26, -8643, 15351, -6326,    21,   -15,   -18,   -13,0,0,0,0,0,0,0,0,0,0,0,0,0,0,0,0,0,0,0,0,0,0,0,0,0,0,0,0,0,0,0,0,0,0,0,0,0,0,0,0,0,0,0,0,0,0,0,0,0,0,0,0,0,0,0,0,0,0,0,0,0,0,0,0,0,0,0,0,0,0,0,0,0,0,0,0,0,0,0,0,0,0,0,0,0,0,0,0,0,0,0,0,0,0,0,0,0,0,0,0,0,0,0,0,0,0,0,0,0,0,0,0,0,0,0,0,0,0,0,1,0,0,0,0,0,0,0,1,1,1,0,0,0,0,0,0,0,0,0,0,0,0,0,0,0,1,0,0,0,0,0,0,0,1,1,1
        18,      3400, -9441, 15388, -5870,  -167,   198,   -21,   -60, -9385, 15420, -5733,  -108,   102,   -71,    -3, -9342, 15371, -5829,    98,  -122,   101,     8, -9310, 15463, -5623,    82,    12,   -66,    19, -9522, 15211, -5511,   -54,    -6,    68,    26, -9441, 15252, -5457,    21,   -16,   -16,   -14,0,0,0,0,0,0,0,0,0,0,0,0,0,0,0,0,0,0,0,0,0,0,0,0,0,0,0,0,0,0,0,0,0,0,0,0,0,0,0,0,0,0,0,0,0,0,0,0,0,0,0,0,0,0,0,0,0,0,0,0,0,0,0,0,0,0,0,0,0,0,0,0,0,0,0,0,0,0,0,0,0,0,0,0,0,0,0,0,0,0,0,0,0,0,0,0,0,0,0,0,0,0,0,0,0,0,0,0,0,0,0,0,0,0,0,0,0,0,0,1,0,0,0,0,0,0,0,1,1,1,0,0,0,0,0,0,0,0,0,0,0,0,0,0,0,1,0,0,0,0,0,0,0,1,1,1
        19,      3600,-10220, 15257, -4977,  -175,   193,    -7,   -61,-10164, 15289, -4845,  -112,    98,   -63,    -3,-10123, 15240, -4940,   107,  -122,    90,     9,-10089, 15333, -4724,    82,    15,   -70,    19,-10274, 15020, -4605,   -55,    -6,    68,    26,-10193, 15060, -4556,    21,   -15,   -16,   -13,0,0,0,0,0,0,0,0,0,0,0,0,0,0,0,0,0,0,0,0,0,0,0,0,0,0,0,0,0,0,0,0,0,0,0,0,0,0,0,0,0,0,0,0,0,0,0,0,0,0,0,0,0,0,0,0,0,0,0,0,0,0,0,0,0,0,0,0,0,0,0,0,0,0,0,0,0,0,0,0,0,0,0,0,0,0,0,0,0,0,0,0,0,0,0,0,0,0,0,0,0,0,0,0,0,0,0,0,0,0,0,0,0,0,0,0,0,0,0,1,0,0,0,0,0,0,0,1,1,1,0,0,0,0,0,0,0,0,0,0,0,0,0,0,0,1,0,0,0,0,0,0,0,1,1,1
        20,      3800,-10956, 15040, -4046,  -183,   186,     7,   -62,-10902, 15069, -3920,  -118,    94,   -53,    -4,-10863, 15024, -4013,   115,  -120,    79,     9,-10827, 15116, -3807,    80,    20,   -73,    18,-10967, 14745, -3674,   -55,    -6,    67,    26,-10885, 14782, -3628,    21,   -14,   -17,   -13,0,0,0,0,0,0,0,0,0,0,0,0,0,0,0,0,0,0,0,0,0,0,0,0,0,0,0,0,0,0,0,0,0,0,0,0,0,0,0,0,0,0,0,0,0,0,0,0,0,0,0,0,0,0,0,0,0,0,0,0,0,0,0,0,0,0,0,0,0,0,0,0,0,0,0,0,0,0,0,0,0,0,0,0,0,0,0,0,0,0,0,0,0,0,0,0,0,0,0,0,0,0,0,0,0,0,0,0,0,0,0,0,0,0,0,0,0,0,0,1,0,0,0,0,0,0,0,1,1,1,0,0,0,0,0,0,0,0,0,0,0,0,0,0,0,1,0,0,0,0,0,0,0,1,1,1
