Ben_488,488,2005
24,12A,12D
1,FREQ PGPS 2,,,Hz,0.0004882813,50.0000000000,0,-32767,+32767,1,1,P
2,POWER PGPS 2,,,MW,0.2574106157,0.0000000000,0,-32767,+32767,1,1,P
3,POWER PLTG 1,,,MW,0.3220237494,0.0000000000,0,-32767,+32767,1,1,P
4,FREQ UY PLTG 1,,,Hz,0.0004882813,50.0000000000,0,-32767,+32767,1,1,P
5,POWER KTBR 2,,,MW,0.2574106157,0.0000000000,0,-32767,+32767,1,1,P
6,FREQ UB KTBR 2,,,Hz,0.0004882813,50.0000000000,0,-32767,+32767,1,1,P
7,FREQ UR PGPS 1,,,Hz,0.0004882813,50.0000000000,0,-32767,+32767,1,1,P
8,POWER PGPS 1,,,MW,0.2574106157,0.0000000000,0,-32767,+32767,1,1,P
9,POWER PLTG 2,,,MW,0.3220237494,0.0000000000,0,-32767,+32767,1,1,P
10,FREQ UY PLTG 2,,,Hz,0.0004882813,50.0000000000,0,-32767,+32767,1,1,P
11,POWER KTBR 1,,,MW,0.2574106157,0.0000000000,0,-32767,+32767,1,1,P
12,FREQ UB KTBR 1,,,Hz,0.0004882813,50.0000000000,0,-32767,+32767,1,1,P
1,FREQ PGPS 2,,,0
2,POWER PGPS 2,,,0
3,FREQ IY PLTG 1,,,0
4,POWER PLTG 1,,,0
5,FREQ UB KTBR 2,,,0
6,POWER KTBR 2,,,0
7,FREQ UR PGPS 1,,,0
8,POWER PGPS 1,,,0
9,FREQ UY PLTG 2,,,0
10,POWER PLTG 2,,,0
11,POWER KTBR 1,,,0
12,FREQ UB KTBR 1,,,0
50
1
20.000,1344
27/07/2022,12:49:26.958066
27/07/2022,12:49:36.958066
ASCII
1
         1,         0,   949, -1032,  1076,   949, -1284,   949,   949, -1010,  4131,   949, -1290,   949,1,0,1,0,1,0,1,0,1,0,0,1
         2,     50000,   949, -1033,  1079,   949, -1279,   949,   949, -1007,  4127,   950, -1287,   950,1,0,1,0,1,0,1,0,1,0,0,1
         3,    100000,   950, -1030,  1077,   950, -1281,   950,   950, -1004,  4123,   950, -1287,   950,1,0,1,0,1,0,1,0,1,0,0,1
         4,    150000,   950, -1029,  1077,   950, -1277,   950,   950, -1004,  4122,   950, -1286,   950,1,0,1,0,1,0,1,0,1,0,0,1
         5,    200000,   950, -1030,  1076,   950, -1279,   950,   950, -1003,  4117,   950, -1284,   950,1,0,1,0,1,0,1,0,1,0,0,1
         6,    250000,   950, -1031,  1075,   950, -1276,   950,   950, -1005,  4119,   950, -1288,   950,1,0,1,0,1,0,1,0,1,0,0,1
         7,    300000,   951, -1029,  1075,   951, -1277,   951,   951, -1004,  4115,   951, -1283,   951,1,0,1,0,1,0,1,0,1,0,0,1
         8,    350000,   951, -1026,  1076,   951, -1277,   951,   951, -1003,  4110,   951, -1284,   951,1,0,1,0,1,0,1,0,1,0,0,1
         9,    400000,   952, -1026,  1075,   952, -1280,   952,   952, -1002,  4110,   952, -1287,   952,1,0,1,0,1,0,1,0,1,0,0,1
        10,    450000,   952, -1028,  1076,   952, -1279,   952,   952, -1000,  4110,   952, -1286,   952,1,0,1,0,1,0,1,0,1,0,0,1
        11,    500000,   952, -1027,  1071,   952, -1279,   952,   952, -1000,  4112,   952, -1287,   952,1,0,1,0,1,0,1,0,1,0,0,1
        12,    550000,   953, -1026,  1076,   953, -1279,   953,   953, -1003,  4112,   953, -1287,   953,1,0,1,0,1,0,1,0,1,0,0,1
        13,    600000,   953, -1027,  1075,   954, -1280,   954,   953, -1001,  4113,   954, -1289,   953,1,0,1,0,1,0,1,0,1,0,0,1
        14,    650000,   954, -1026,  1076,   954, -1280,   954,   954, -1003,  4115,   954, -1288,   954,1,0,1,0,1,0,1,0,1,0,0,1
        15,    700000,   955, -1027,  1077,   955, -1282,   954,   955, -1002,  4119,   954, -1289,   955,1,0,1,0,1,0,1,0,1,0,0,1
        16,    750000,   955, -1028,  1073,   955, -1285,   955,   955, -1002,  4122,   955, -1292,   955,1,0,1,0,1,0,1,0,1,0,0,1
        17,    800000,   955, -1028,  1077,   955, -1282,   955,   955, -1006,  4127,   955, -1292,   955,1,0,1,0,1,0,1,0,1,0,0,1
        18,    850000,   955, -1029,  1077,   955, -1284,   955,   955, -1005,  4127,   955, -1291,   955,1,0,1,0,1,0,1,0,1,0,0,1
        19,    900000,   955, -1029,  1077,   955, -1284,   955,   955, -1004,  4128,   955, -1292,   955,1,0,1,0,1,0,1,0,1,0,0,1
        20,    950000,   955, -1030,  1078,   954, -1282,   955,   955, -1007,  4136,   955, -1292,   954,1,0,1,0,1,0,1,0,1,0,0,1
        21,   1000000,   954, -1032,  1076,   954, -1284,   954,   954, -1002,  4136,   954, -1292,   954,1,0,1,0,1,0,1,0,1,0,0,1
        22,   1050000,   954, -1030,  1076,   954, -1285,   954,   954, -1006,  4137,   954, -1292,   954,1,0,1,0,1,0,1,0,1,0,0,1
        23,   1100000,   953, -1027,  1076,   953, -1286,   953,   953, -1009,  4136,   953, -1294,   953,1,0,1,0,1,0,1,0,1,0,0,1
        24,   1150000,   952, -1030,  1079,   952, -1285,   952,   952, -1005,  4139,   952, -1292,   952,1,0,1,0,1,0,1,0,1,0,0,1
        25,   1200000,   952, -1032,  1078,   951, -1284,   951,   952, -1007,  4136,   951, -1293,   952,1,0,1,0,1,0,1,0,1,0,0,1
        26,   1250000,   951, -1031,  1076,   951, -1288,   951,   951, -1008,  4137,   951, -1293,   951,1,0,1,0,1,0,1,0,1,0,0,1
        27,   1300000,   951, -1027,  1076,   951, -1286,   951,   951, -1008,  4136,   951, -1296,   951,1,0,1,0,1,0,1,0,1,0,0,1
        28,   1350000,   950, -1030,  1074,   950, -1286,   950,   950, -1004,  4136,   950, -1294,   950,1,0,1,0,1,0,1,0,1,0,0,1
        29,   1400000,   949, -1030,  1077,   949, -1287,   949,   949, -1004,  4134,   949, -1297,   949,1,0,1,0,1,0,1,0,1,0,0,1
        30,   1450000,   949, -1030,  1079,   948, -1287,   948,   948, -1003,  4131,   948, -1292,   948,1,0,1,0,1,0,1,0,1,0,0,1
        31,   1500000,   948, -1025,  1076,   947, -1286,   948,   948, -1005,  4131,   947, -1291,   948,1,0,1,0,1,0,1,0,1,0,0,1
        32,   1550000,   947, -1028,  1077,   947, -1282,   947,   947, -1005,  4127,   947, -1293,   947,1,0,1,0,1,0,1,0,1,0,0,1
        33,   1600000,   946, -1028,  1078,   946, -1283,   946,   946, -1006,  4118,   946, -1290,   946,1,0,1,0,1,0,1,0,1,0,0,1
        34,   1650000,   945, -1028,  1077,   945, -1281,   945,   945, -1000,  4122,   946, -1285,   945,1,0,1,0,1,0,1,0,1,0,0,1
        35,   1700000,   945, -1029,  1075,   945, -1281,   945,   945, -1003,  4115,   945, -1289,   945,1,0,1,0,1,0,1,0,1,0,0,1
        36,   1750000,   944, -1025,  1075,   945, -1275,   945,   945, -1002,  4108,   945, -1286,   944,1,0,1,0,1,0,1,0,1,0,0,1
        37,   1800000,   944, -1024,  1075,   944, -1275,   944,   944, -1000,  4109,   944, -1284,   944,1,0,1,0,1,0,1,0,1,0,0,1
        38,   1850000,   944, -1024,  1074,   944, -1275,   944,   944, -1000,  4098,   944, -1281,   944,1,0,1,0,1,0,1,0,1,0,0,1
        39,   1900000,   944, -1025,  1074,   944, -1275,   944,   944,  -997,  4097,   944, -1286,   944,1,0,1,0,1,0,1,0,1,0,0,1
        40,   1950000,   944, -1023,  1072,   944, -1276,   944,   944,  -999,  4096,   944, -1284,   944,1,0,1,0,1,0,1,0,1,0,0,1
        41,   2000000,   944, -1021,  1073,   944, -1277,   944,   944,  -997,  4094,   943, -1282,   943,1,0,1,0,1,0,1,0,1,0,0,1
        42,   2050000,   943, -1023,  1075,   943, -1273,   943,   943,  -996,  4091,   943, -1281,   943,1,0,1,0,1,0,1,0,1,0,0,1
        43,   2100000,   943, -1020,  1074,   943, -1276,   943,   943,  -993,  4090,   943, -1282,   943,1,0,1,0,1,0,1,0,1,0,0,1
        44,   2150000,   944, -1021,  1073,   944, -1274,   944,   944,  -995,  4088,   944, -1282,   944,1,0,1,0,1,0,1,0,1,0,0,1
        45,   2200000,   944, -1017,  1074,   944, -1274,   944,   943,  -996,  4087,   944, -1281,   944,1,0,1,0,1,0,1,0,1,0,0,1
        46,   2250000,   944, -1020,  1071,   944, -1277,   944,   944,  -997,  4089,   944, -1284,   944,1,0,1,0,1,0,1,0,1,0,0,1
        47,   2300000,   944, -1020,  1073,   944, -1271,   944,   944,  -995,  4086,   944, -1281,   944,1,0,1,0,1,0,1,0,1,0,0,1
        48,   2350000,   944, -1021,  1071,   944, -1274,   944,   944,  -994,  4090,   944, -1279,   944,1,0,1,0,1,0,1,0,1,0,0,1
        49,   2400000,   944, -1018,  1072,   944, -1273,   944,   944,  -996,  4092,   944, -1281,   944,1,0,1,0,1,0,1,0,1,0,0,1
        50,   2450000,   943, -1020,  1072,   943, -1274,   944,   943,  -996,  4093,   944, -1281,   944,1,0,1,0,1,0,1,0,1,0,0,1
        51,   2500000,   943, -1021,  1076,   943, -1275,   943,   943,  -996,  4094,   943, -1283,   943,1,0,1,0,1,0,1,0,1,0,0,1
        52,   2550000,   943, -1023,  1075,   943, -1275,   943,   943,  -997,  4100,   943, -1287,   943,1,0,1,0,1,0,1,0,1,0,0,1
        53,   2600000,   943, -1022,  1073,   943, -1279,   942,   942,  -996,  4098,   943, -1286,   943,1,0,1,0,1,0,1,0,1,0,0,1
        54,   2650000,   942, -1021,  1071,   942, -1276,   942,   942, -1000,  4102,   942, -1285,   942,1,0,1,0,1,0,1,0,1,0,0,1
        55,   2700000,   942, -1023,  1076,   942, -1277,   942,   941,  -999,  4101,   942, -1286,   942,1,0,1,0,1,0,1,0,1,0,0,1
        56,   2750000,   941, -1022,  1076,   941, -1276,   942,   941,  -999,  4101,   941, -1285,   941,1,0,1,0,1,0,1,0,1,0,0,1
        57,   2800000,   940, -1022,  1074,   941, -1278,   940,   940,  -995,  4107,   941, -1286,   941,1,0,1,0,1,0,1,0,1,0,0,1
        58,   2850000,   940, -1020,  1076,   940, -1280,   940,   940,  -999,  4107,   940, -1288,   940,1,0,1,0,1,0,1,0,1,0,0,1
        59,   2900000,   939, -1022,  1075,   939, -1279,   939,   939,  -996,  4105,   939, -1287,   940,1,0,1,0,1,0,1,0,1,0,0,1
        60,   2950000,   939, -1023,  1076,   939, -1281,   939,   939,  -998,  4103,   939, -1287,   939,1,0,1,0,1,0,1,0,1,0,0,1
        61,   3000000,   937, -1023,  1077,   938, -1282,   937,   937, -1002,  4107,   937, -1290,   937,1,0,1,0,1,0,1,0,1,0,0,1
        62,   3050000,   937, -1020,  1073,   937, -1280,   936,   937,  -997,  4104,   937, -1288,   936,1,0,1,0,1,0,1,0,1,0,0,1
        63,   3100000,   935, -1022,  1075,   936, -1276,   936,   935,  -998,  4103,   936, -1286,   936,1,0,1,0,1,0,1,0,1,0,0,1
        64,   3150000,   935, -1020,  1072,   935, -1279,   934,   935,  -997,  4101,   935, -1285,   935,1,0,1,0,1,0,1,0,1,0,0,1
        65,   3200000,   934, -1021,  1074,   934, -1279,   934,   934,  -994,  4098,   934, -1288,   934,1,0,1,0,1,0,1,0,1,0,0,1
        66,   3250000,   933, -1019,  1073,   933, -1276,   933,   933,  -995,  4095,   933, -1286,   933,1,0,1,0,1,0,1,0,1,0,0,1
        67,   3300000,   933, -1019,  1072,   932, -1278,   932,   932,  -995,  4091,   933, -1284,   932,1,0,1,0,1,0,1,0,1,0,0,1
        68,   3350000,   932, -1020,  1075,   932, -1278,   932,   933,  -993,  4087,   932, -1284,   932,1,0,1,0,1,0,1,0,1,0,0,1
        69,   3400000,   931, -1018,  1075,   932, -1274,   932,   932,  -993,  4089,   932, -1281,   932,1,0,1,0,1,0,1,0,1,0,0,1
        70,   3450000,   931, -1019,  1072,   931, -1277,   931,   931,  -994,  4081,   931, -1281,   931,1,0,1,0,1,0,1,0,1,0,0,1
        71,   3500000,   930, -1018,  1074,   930, -1273,   931,   930,  -992,  4083,   931, -1282,   931,1,0,1,0,1,0,1,0,1,0,0,1
        72,   3550000,   931, -1016,  1071,   930, -1273,   930,   930,  -992,  4075,   931, -1282,   930,1,0,1,0,1,0,1,0,1,0,0,1
        73,   3600000,   930, -1017,  1074,   930, -1272,   930,   930,  -990,  4075,   930, -1277,   930,1,0,1,0,1,0,1,0,1,0,0,1
        74,   3650000,   930, -1014,  1072,   930, -1271,   930,   930,  -988,  4072,   930, -1279,   930,1,0,1,0,1,0,1,0,1,0,0,1
        75,   3700000,   930, -1015,  1074,   930, -1271,   929,   930,  -989,  4065,   930, -1280,   930,1,0,1,0,1,0,1,0,1,0,0,1
        76,   3750000,   930, -1014,  1071,   930, -1269,   930,   930,  -988,  4069,   930, -1278,   930,1,0,1,0,1,0,1,0,1,0,0,1
        77,   3800000,   930, -1014,  1072,   930, -1271,   930,   930,  -989,  4062,   930, -1279,   930,1,0,1,0,1,0,1,0,1,0,0,1
        78,   3850000,   930, -1012,  1071,   930, -1270,   930,   930,  -985,  4061,   930, -1281,   930,1,0,1,0,1,0,1,0,1,0,0,1
        79,   3900000,   930, -1012,  1071,   930, -1273,   930,   930,  -988,  4060,   930, -1279,   930,1,0,1,0,1,0,1,0,1,0,0,1
        80,   3950000,   931, -1010,  1072,   931, -1270,   930,   931,  -989,  4064,   930, -1282,   931,1,0,1,0,1,0,1,0,1,0,0,1
        81,   4000000,   931, -1009,  1072,   931, -1271,   931,   931,  -985,  4066,   931, -1277,   931,1,0,1,0,1,0,1,0,1,0,0,1
        82,   4050000,   931, -1011,  1071,   931, -1270,   931,   931,  -986,  4059,   931, -1277,   931,1,0,1,0,1,0,1,0,1,0,0,1
        83,   4100000,   931, -1011,  1071,   931, -1273,   931,   931,  -988,  4065,   931, -1278,   931,1,0,1,0,1,0,1,0,1,0,0,1
        84,   4150000,   931, -1012,  1070,   931, -1271,   931,   931,  -988,  4059,   931, -1279,   931,1,0,1,0,1,0,1,0,1,0,0,1
        85,   4200000,   931, -1014,  1072,   932, -1267,   931,   931,  -985,  4060,   932, -1277,   931,1,0,1,0,1,0,1,0,1,0,0,1
        86,   4250000,   932, -1012,  1071,   932, -1271,   932,   932,  -989,  4060,   932, -1278,   932,1,0,1,0,1,0,1,0,1,0,0,1
        87,   4300000,   931, -1014,  1071,   931, -1269,   932,   932,  -989,  4068,   932, -1277,   932,1,0,1,0,1,0,1,0,1,0,0,1
        88,   4350000,   932, -1014,  1072,   932, -1268,   932,   932,  -990,  4063,   932, -1277,   932,1,0,1,0,1,0,1,0,1,0,0,1
        89,   4400000,   932, -1015,  1073,   932, -1268,   931,   932,  -989,  4066,   931, -1276,   932,1,0,1,0,1,0,1,0,1,0,0,1
        90,   4450000,   932, -1016,  1073,   931, -1270,   932,   932,  -992,  4063,   931, -1277,   932,1,0,1,0,1,0,1,0,1,0,0,1
        91,   4500000,   931, -1018,  1072,   931, -1268,   932,   931,  -990,  4069,   931, -1275,   931,1,0,1,0,1,0,1,0,1,0,0,1
        92,   4550000,   931, -1016,  1070,   931, -1270,   932,   931,  -989,  4067,   932, -1278,   931,1,0,1,0,1,0,1,0,1,0,0,1
        93,   4600000,   931, -1016,  1075,   931, -1270,   931,   931,  -992,  4070,   931, -1275,   931,1,0,1,0,1,0,1,0,1,0,0,1
        94,   4650000,   931, -1014,  1072,   931, -1269,   931,   931,  -991,  4072,   931, -1282,   931,1,0,1,0,1,0,1,0,1,0,0,1
        95,   4700000,   931, -1017,  1072,   931, -1271,   930,   931,  -990,  4070,   931, -1281,   931,1,0,1,0,1,0,1,0,1,0,0,1
        96,   4750000,   931, -1013,  1072,   931, -1273,   931,   931,  -989,  4069,   931, -1281,   931,1,0,1,0,1,0,1,0,1,0,0,1
        97,   4800000,   930, -1014,  1074,   931, -1270,   931,   930,  -990,  4073,   930, -1280,   931,1,0,1,0,1,0,1,0,1,0,0,1
        98,   4850000,   930, -1016,  1073,   930, -1273,   930,   930,  -988,  4072,   930, -1280,   930,1,0,1,0,1,0,1,0,1,0,0,1
        99,   4900000,   929, -1015,  1075,   930, -1274,   929,   929,  -991,  4069,   929, -1280,   929,1,0,1,0,1,0,1,0,1,0,0,1
       100,   4950000,   929, -1016,  1073,   929, -1272,   929,   929,  -991,  4070,   929, -1280,   929,1,0,1,0,1,0,1,0,1,0,0,1
       101,   5000000,   929, -1014,  1073,   929, -1271,   929,   928,  -988,  4065,   929, -1281,   929,1,0,1,0,1,0,1,0,1,0,0,1
       102,   5050000,   928, -1013,  1071,   928, -1272,   928,   928,  -991,  4067,   928, -1278,   928,1,0,1,0,1,0,1,0,1,0,0,1
       103,   5100000,   928, -1014,  1070,   928, -1268,   928,   928,  -990,  4064,   928, -1277,   928,1,0,1,0,1,0,1,0,1,0,0,1
       104,   5150000,   927, -1014,  1070,   927, -1271,   927,   927,  -991,  4059,   927, -1277,   928,1,0,1,0,1,0,1,0,1,0,0,1
       105,   5200000,   927, -1013,  1072,   927, -1266,   927,   927,  -987,  4055,   927, -1276,   927,1,0,1,0,1,0,1,0,1,0,0,1
       106,   5250000,   926, -1012,  1072,   926, -1266,   926,   926,  -988,  4054,   926, -1275,   926,1,0,1,0,1,0,1,0,1,0,0,1
       107,   5300000,   925, -1011,  1070,   926, -1266,   926,   926,  -986,  4049,   926, -1276,   925,1,0,1,0,1,0,1,0,1,0,0,1
       108,   5350000,   926, -1009,  1070,   925, -1266,   925,   925,  -986,  4046,   926, -1274,   925,1,0,1,0,1,0,1,0,1,0,0,1
       109,   5400000,   926, -1009,  1071,   926, -1264,   926,   926,  -986,  4048,   926, -1274,   926,1,0,1,0,1,0,1,0,1,0,0,1
       110,   5450000,   926, -1007,  1069,   926, -1267,   926,   926,  -982,  4044,   926, -1273,   926,1,0,1,0,1,0,1,0,1,0,0,1
       111,   5500000,   926, -1008,  1069,   925, -1267,   926,   926,  -983,  4045,   926, -1275,   926,1,0,1,0,1,0,1,0,1,0,0,1
       112,   5550000,   926, -1007,  1068,   926, -1266,   926,   926,  -982,  4035,   925, -1278,   925,1,0,1,0,1,0,1,0,1,0,0,1
       113,   5600000,   926, -1008,  1069,   926, -1266,   926,   926,  -979,  4038,   926, -1274,   926,1,0,1,0,1,0,1,0,1,0,0,1
       114,   5650000,   926, -1007,  1068,   926, -1265,   926,   926,  -979,  4039,   926, -1274,   926,1,0,1,0,1,0,1,0,1,0,0,1
       115,   5700000,   927, -1003,  1070,   927, -1266,   927,   926,  -982,  4041,   927, -1274,   927,1,0,1,0,1,0,1,0,1,0,0,1
       116,   5750000,   927, -1005,  1070,   927, -1266,   927,   927,  -979,  4044,   927, -1275,   927,1,0,1,0,1,0,1,0,1,0,0,1
       117,   5800000,   927, -1006,  1068,   927, -1266,   927,   927,  -979,  4038,   927, -1273,   927,1,0,1,0,1,0,1,0,1,0,0,1
       118,   5850000,   927, -1006,  1069,   927, -1269,   927,   927,  -982,  4040,   927, -1274,   927,1,0,1,0,1,0,1,0,1,0,0,1
       119,   5900000,   928, -1005,  1072,   928, -1271,   927,   927,  -983,  4039,   927, -1277,   927,1,0,1,0,1,0,1,0,1,0,0,1
       120,   5950000,   928, -1006,  1070,   928, -1269,   928,   928,  -983,  4041,   928, -1276,   928,1,0,1,0,1,0,1,0,1,0,0,1
       121,   6000000,   928, -1008,  1069,   928, -1271,   928,   928,  -982,  4047,   928, -1277,   928,1,0,1,0,1,0,1,0,1,0,0,1
       122,   6050000,   928, -1008,  1072,   928, -1269,   929,   928,  -986,  4052,   928, -1277,   928,1,0,1,0,1,0,1,0,1,0,0,1
       123,   6100000,   928, -1009,  1070,   928, -1270,   928,   928,  -981,  4050,   929, -1278,   928,1,0,1,0,1,0,1,0,1,0,0,1
       124,   6150000,   928, -1010,  1073,   928, -1269,   928,   928,  -987,  4052,   928, -1277,   928,1,0,1,0,1,0,1,0,1,0,0,1
       125,   6200000,   928, -1009,  1070,   928, -1272,   928,   928,  -985,  4051,   928, -1279,   928,1,0,1,0,1,0,1,0,1,0,0,1
       126,   6250000,   928, -1011,  1073,   927, -1273,   927,   928,  -984,  4060,   928, -1277,   927,1,0,1,0,1,0,1,0,1,0,0,1
       127,   6300000,   927, -1012,  1068,   927, -1272,   927,   927,  -986,  4057,   927, -1280,   927,1,0,1,0,1,0,1,0,1,0,0,1
       128,   6350000,   926, -1011,  1074,   927, -1273,   927,   926,  -987,  4063,   926, -1280,   927,1,0,1,0,1,0,1,0,1,0,0,1
       129,   6400000,   926, -1011,  1068,   926, -1272,   926,   926,  -987,  4064,   926, -1279,   926,1,0,1,0,1,0,1,0,1,0,0,1
       130,   6450000,   925, -1016,  1073,   925, -1272,   925,   925,  -986,  4065,   925, -1281,   925,1,0,1,0,1,0,1,0,1,0,0,1
       131,   6500000,   924, -1013,  1074,   924, -1270,   924,   924,  -989,  4067,   924, -1278,   924,1,0,1,0,1,0,1,0,1,0,0,1
       132,   6550000,   923, -1014,  1071,   923, -1273,   924,   923,  -985,  4067,   924, -1279,   923,1,0,1,0,1,0,1,0,1,0,0,1
       133,   6600000,   923, -1012,  1071,   922, -1270,   922,   923,  -990,  4064,   923, -1277,   923,1,0,1,0,1,0,1,0,1,0,0,1
       134,   6650000,   922, -1012,  1071,   922, -1271,   921,   922,  -987,  4062,   921, -1280,   922,1,0,1,0,1,0,1,0,1,0,0,1
       135,   6700000,   921, -1010,  1072,   921, -1270,   920,   921,  -989,  4062,   920, -1277,   921,1,0,1,0,1,0,1,0,1,0,0,1
       136,   6750000,   919, -1012,  1072,   919, -1271,   920,   919,  -986,  4055,   919, -1281,   920,1,0,1,0,1,0,1,0,1,0,0,1
       137,   6800000,   919, -1011,  1072,   919, -1271,   919,   919,  -986,  4055,   918, -1277,   918,1,0,1,0,1,0,1,0,1,0,0,1
       138,   6850000,   918, -1011,  1070,   918, -1269,   918,   918,  -989,  4053,   918, -1277,   918,1,0,1,0,1,0,1,0,1,0,0,1
       139,   6900000,   917, -1011,  1071,   917, -1267,   917,   917,  -985,  4048,   917, -1276,   917,1,0,1,0,1,0,1,0,1,0,0,1
       140,   6950000,   916, -1009,  1068,   916, -1265,   917,   916,  -985,  4046,   916, -1274,   916,1,0,1,0,1,0,1,0,1,0,0,1
       141,   7000000,   916, -1007,  1072,   916, -1266,   916,   916,  -983,  4041,   916, -1275,   916,1,0,1,0,1,0,1,0,1,0,0,1
       142,   7050000,   915, -1010,  1071,   915, -1264,   915,   915,  -986,  4039,   915, -1272,   915,1,0,1,0,1,0,1,0,1,0,0,1
       143,   7100000,   914, -1006,  1067,   914, -1264,   914,   914,  -981,  4029,   914, -1271,   914,1,0,1,0,1,0,1,0,1,0,0,1
       144,   7150000,   914, -1007,  1070,   914, -1261,   914,   914,  -983,  4029,   914, -1270,   914,1,0,1,0,1,0,1,0,1,0,0,1
